Title: * nmos_current_mirror
Date: Sun Mar 17 22:01:28  2024
Plotname: DC transfer characteristic
Flags: real
No. Variables: 8
No. Points: 34
Variables:
	0	v(v-sweep)	voltage
	1	i(@m1[id])	current
	2	i(@m2[id])	current
	3	v(vl)	voltage
	4	i(vload)	current
	5	v(vref)	voltage
	6	v(vss)	voltage
	7	i(vss)	current
Values:
 0	0.000000000000000e+00
	9.999999994360408e-07
	-4.376365770542563e-42
	0.000000000000000e+00
	6.454816493308948e-28
	5.722007620694365e-01
	0.000000000000000e+00
	-5.652575519199199e-16

 1	1.000000000000000e-01
	9.999999994330410e-07
	1.601254857589744e-06
	1.000000000000000e-01
	-1.601254856249332e-06
	5.722007620691492e-01
	0.000000000000000e+00
	-6.658941716582011e-16

 2	2.000000000000000e-01
	9.999999994366068e-07
	1.951354565451490e-06
	2.000000000000000e-01
	-1.951354557674922e-06
	5.722007620694910e-01
	0.000000000000000e+00
	-7.637089011320754e-16

 3	3.000000000000000e-01
	9.999999994370837e-07
	1.985369635289947e-06
	3.000000000000000e-01
	-1.985369635040812e-06
	5.722007620695364e-01
	0.000000000000000e+00
	-8.673222064049122e-16

 4	4.000000000000000e-01
	9.999999994287487e-07
	1.995452460254829e-06
	4.000000000000000e-01
	-1.995452460656910e-06
	5.722007620687379e-01
	0.000000000000000e+00
	-9.766608191273217e-16

 5	5.000000000000000e-01
	9.999999994218735e-07
	2.002078196352957e-06
	5.000000000000000e-01
	-2.002078196866597e-06
	5.722007620680792e-01
	0.000000000000000e+00
	-1.091886522591245e-15

 6	6.000000000000000e-01
	9.999999994364124e-07
	2.007731600337693e-06
	6.000000000000000e-01
	-2.007731600917051e-06
	5.722007620694721e-01
	0.000000000000000e+00
	-1.142946515683289e-15

 7	7.000000000000000e-01
	9.999999994237031e-07
	2.013001042040145e-06
	7.000000000000000e-01
	-2.013001042758256e-06
	5.722007620682544e-01
	0.000000000000000e+00
	-1.294364454676291e-15

 8	7.999999999999999e-01
	9.999999994236717e-07
	2.018086261345249e-06
	7.999999999999999e-01
	-2.018086262142726e-06
	5.722007620682517e-01
	0.000000000000000e+00
	-1.373790522382092e-15

 9	8.999999999999999e-01
	9.999999994321450e-07
	2.023071542231502e-06
	8.999999999999999e-01
	-2.023071543122423e-06
	5.722007620690635e-01
	0.000000000000000e+00
	-1.458771432155173e-15

 10	9.999999999999999e-01
	9.999999994226003e-07
	2.027998068128861e-06
	9.999999999999999e-01
	-2.027998069115133e-06
	5.722007620681490e-01
	0.000000000000000e+00
	-1.563653804542193e-15

 11	1.100000000000000e+00
	9.999999994302341e-07
	2.032888745466041e-06
	1.100000000000000e+00
	-2.032888746589245e-06
	5.722007620688802e-01
	0.000000000000000e+00
	-1.692969265807592e-15

 12	1.200000000000000e+00
	9.999999994297246e-07
	2.037760694935058e-06
	1.200000000000000e+00
	-2.037760696183000e-06
	5.722007620688315e-01
	0.000000000000000e+00
	-1.818210922113951e-15

 13	1.300000000000000e+00
	9.999999994339873e-07
	2.042639772562543e-06
	1.300000000000000e+00
	-2.042639773824906e-06
	5.722007620692400e-01
	0.000000000000000e+00
	-1.828320895613733e-15

 14	1.400000000000000e+00
	9.999999994309581e-07
	2.047589038678611e-06
	1.400000000000000e+00
	-2.047589040127251e-06
	5.722007620689498e-01
	0.000000000000000e+00
	-2.017642288446016e-15

 15	1.500000000000000e+00
	9.999999994298913e-07
	2.052762759723174e-06
	1.500000000000000e+00
	-2.052762761245441e-06
	5.722007620688473e-01
	0.000000000000000e+00
	-2.092356523624579e-15

 16	1.600000000000000e+00
	9.999999994327327e-07
	2.058494121359815e-06
	1.600000000000000e+00
	-2.058494122936239e-06
	5.722007620691195e-01
	0.000000000000000e+00
	-2.143696672865048e-15

 17	1.700000000000000e+00
	9.999999994224374e-07
	2.065418021198708e-06
	1.700000000000000e+00
	-2.065418022889620e-06
	5.722007620681332e-01
	0.000000000000000e+00
	-2.268513118632822e-15

 18	1.800000000000000e+00
	9.999999994273246e-07
	2.074622438774655e-06
	1.800000000000000e+00
	-2.074622440617624e-06
	5.722007620686015e-01
	0.000000000000000e+00
	-2.415680011020105e-15

 19	1.900000000000001e+00
	9.999999994276344e-07
	2.087815666719460e-06
	1.900000000000001e+00
	-2.087815668627702e-06
	5.722007620686312e-01
	0.000000000000000e+00
	-2.480782116313094e-15

 20	2.000000000000000e+00
	9.999999994299440e-07
	2.107493698222659e-06
	2.000000000000000e+00
	-2.107493700220786e-06
	5.722007620688525e-01
	0.000000000000000e+00
	-2.568595292504147e-15

 21	2.100000000000001e+00
	9.999999994277657e-07
	2.137092415157542e-06
	2.100000000000001e+00
	-2.137092417198172e-06
	5.722007620686439e-01
	0.000000000000000e+00
	-2.613940142544431e-15

 22	2.200000000000001e+00
	9.999999994224558e-07
	2.181112058042041e-06
	2.200000000000001e+00
	-2.181112060184454e-06
	5.722007620681351e-01
	0.000000000000000e+00
	-2.722348077815755e-15

 23	2.300000000000001e+00
	9.999999994273555e-07
	2.245205590707259e-06
	2.300000000000001e+00
	-2.245205592998900e-06
	5.722007620686045e-01
	0.000000000000000e+00
	-2.869061172301545e-15

 24	2.400000000000001e+00
	9.999999994277731e-07
	2.336226936785161e-06
	2.400000000000001e+00
	-2.336226939125829e-06
	5.722007620686443e-01
	0.000000000000000e+00
	-2.922314980728330e-15

 25	2.500000000000001e+00
	9.999999994307167e-07
	2.462238928731728e-06
	2.500000000000001e+00
	-2.462238931244531e-06
	5.722007620689264e-01
	0.000000000000000e+00
	-3.099463027800339e-15

 26	2.600000000000001e+00
	9.999999994322405e-07
	2.632483791532757e-06
	2.600000000000001e+00
	-2.632483794118290e-06
	5.722007620690726e-01
	0.000000000000000e+00
	-3.183839791324456e-15

 27	2.700000000000001e+00
	9.999999994325694e-07
	2.857320983246196e-06
	2.700000000000001e+00
	-2.857320985871770e-06
	5.722007620691040e-01
	0.000000000000000e+00
	-3.245289067032409e-15

 28	2.800000000000001e+00
	9.999999994298085e-07
	3.148138308456707e-06
	2.800000000000001e+00
	-3.148138311148685e-06
	5.722007620688395e-01
	0.000000000000000e+00
	-3.348964840985416e-15

 29	2.900000000000001e+00
	9.999999994271012e-07
	3.517242578955875e-06
	2.900000000000001e+00
	-3.517242581629887e-06
	5.722007620685801e-01
	0.000000000000000e+00
	-3.387453806350673e-15

 30	3.000000000000001e+00
	9.999999994345288e-07
	3.977735913624108e-06
	3.000000000000001e+00
	-3.977735916371739e-06
	5.722007620692917e-01
	0.000000000000000e+00
	-3.535510506848804e-15

 31	3.100000000000001e+00
	9.999999994268513e-07
	4.543383231916777e-06
	3.100000000000001e+00
	-4.543383234634213e-06
	5.722007620685561e-01
	0.000000000000000e+00
	-3.634790179806032e-15

 32	3.200000000000002e+00
	9.999999994338103e-07
	5.228475758113155e-06
	3.200000000000002e+00
	-5.228475760843398e-06
	5.722007620692231e-01
	0.000000000000000e+00
	-3.819117254622109e-15

 33	3.300000000000002e+00
	9.999999994230987e-07
	6.047694531267768e-06
	3.300000000000002e+00
	-6.047694533772852e-06
	5.722007620681968e-01
	0.000000000000000e+00
	-3.859216217862628e-15

